T57E0 175:231 SEGGER J-Link V6.30h Log File (0000ms, 1114ms total)
T57E0 175:231 DLL Compiled: Mar 16 2018 18:02:51 (0000ms, 1114ms total)
T57E0 175:231 Logging started @ 2023-10-19 15:16 (0000ms, 1114ms total)
T57E0 175:231 JLINK_SetWarnOutHandler(...) (0000ms, 1114ms total)
T57E0 175:231 JLINK_OpenEx(...)
Firmware: J-Link V9 compiled May  7 2021 16:26:12
Hardware: V9.50
S/N: 36506744
Feature(s): RDI, GDB, FlashDL, FlashBP, JFlash
TELNET listener socket opened on port 19021WEBSRV 
Starting webserver (0075ms, 1189ms total)
T57E0 175:231 WEBSRV Webserver running on local port 19080 (0075ms, 1189ms total)
T57E0 175:231   returns O.K. (0075ms, 1189ms total)
T57E0 175:306 JLINK_GetEmuCaps()  returns 0xB9FF7BBF (0000ms, 1189ms total)
T57E0 175:306 JLINK_TIF_GetAvailable(...) (0001ms, 1190ms total)
T57E0 175:307 JLINK_SetErrorOutHandler(...) (0000ms, 1190ms total)
T57E0 175:307 JLINK_ExecCommand("ProjectFile = "D:\LiteOS_Demo\Project\JLinkSettings.ini"", ...).   returns 0x00 (0000ms, 1190ms total)
T57E0 175:307 JLINK_ExecCommand("Device = STM32F103ZE", ...). Device "STM32F103ZE" selected.  returns 0x00 (0000ms, 1190ms total)
T57E0 175:307 JLINK_ExecCommand("DisableConnectionTimeout", ...).   returns 0x01 (0000ms, 1190ms total)
T57E0 175:307 JLINK_GetHardwareVersion()  returns 0x17318 (0000ms, 1190ms total)
T57E0 175:307 JLINK_GetDLLVersion()  returns 63008 (0000ms, 1190ms total)
T57E0 175:307 JLINK_GetFirmwareString(...) (0000ms, 1190ms total)
T57E0 175:307 JLINK_GetDLLVersion()  returns 63008 (0000ms, 1190ms total)
T57E0 175:307 JLINK_GetCompileDateTime() (0000ms, 1190ms total)
T57E0 175:307 JLINK_GetFirmwareString(...) (0002ms, 1192ms total)
T57E0 175:309 JLINK_GetHardwareVersion()  returns 0x17318 (0000ms, 1192ms total)
T57E0 175:309 JLINK_TIF_Select(JLINKARM_TIF_SWD)  returns 0x00 (0001ms, 1193ms total)
T57E0 175:310 JLINK_SetSpeed(5000) (0000ms, 1193ms total)
T57E0 175:310 JLINK_GetId() >0x10B TIF>Found SW-DP with ID 0x1BA01477 >0x0D TIF> >0x28 TIF> >0x0D TIF> >0x28 TIF> >0x0D TIF> >0x28 TIF> >0x0D TIF> >0x28 TIF> >0x0D TIF> >0x21 TIF> >0x0D TIF> >0x28 TIF> >0x0D TIF> >0x28 TIF> >0x0D TIF> >0x28 TIF> >0x0D TIF> >0x21 TIF> >0x0D TIF> >0x21 TIF> >0x0D TIF> >0x28 TIF> >0x0D TIF> >0x21 TIF> >0x0D TIF> >0x21 TIF> >0x0D TIF> >0x28 TIF> >0x0D TIF> >0x21 TIF> >0x0D TIF> >0x21 TIF> >0x0D TIF> >0x28 TIF> >0x0D TIF> >0x21 TIF> >0x0D TIF> >0x21 TIF> >0x0D TIF> >0x28 TIF>
 >0x0D TIF> >0x21 TIF> >0x0D TIF> >0x21 TIF> >0x0D TIF> >0x28 TIF> >0x0D TIF> >0x21 TIF> >0x0D TIF> >0x21 TIF> >0x0D TIF> >0x28 TIF> >0x0D TIF> >0x21 TIF> >0x0D TIF> >0x21 TIF> >0x10B TIF>Found SW-DP with ID 0x1BA01477 >0x0D TIF> >0x28 TIF> >0x0D TIF> >0x28 TIF> >0x0D TIF> >0x28 TIF> >0x0D TIF> >0x28 TIF> >0x0D TIF> >0x21 TIF> >0x0D TIF> >0x28 TIF>Scanning AP map to find all available APs >0x0D TIF> >0x28 TIF> >0x0D TIF> >0x21 TIF> >0x0D TIF> >0x21 TIF> >0x0D TIF> >0x28 TIF> >0x0D TIF> >0x21 TIF>
 >0x0D TIF> >0x21 TIF>AP[1]: Stopped AP scan as end of AP map has been reachedAP[0]: AHB-AP (IDR: 0x14770011)Iterating through AP map to find AHB-AP to use >0x42 TIF> >0x28 TIF> >0x0D TIF> >0x28 TIF> >0x0D TIF> >0x21 TIF> >0x0D TIF> >0x21 TIF> >0x42 TIF> >0x28 TIF> >0x0D TIF> >0x28 TIF> >0x0D TIF> >0x28 TIF> >0x0D TIF> >0x21 TIF> >0x0D TIF> >0x21 TIF>AP[0]: Core foundAP[0]: AHB-AP ROM base: 0xE00FF000 >0x0D TIF> >0x28 TIF> >0x0D TIF> >0x28 TIF> >0x0D TIF> >0x28 TIF> >0x0D TIF> >0x21 TIF> >0x0D TIF>
 >0x21 TIF>CPUID register: 0x411FC231. Implementer code: 0x41 (ARM)Found Cortex-M3 r1p1, Little endian. -- CPU_ReadMem(4 bytes @ 0xE000EDF0) -- CPU_WriteMem(4 bytes @ 0xE000EDF0) -- CPU_ReadMem(4 bytes @ 0xE0002000)FPUnit: 6 code (BP) slots and 2 literal slots -- CPU_ReadMem(4 bytes @ 0xE000EDFC) -- CPU_WriteMem(4 bytes @ 0xE000EDFC) -- CPU_ReadMem(4 bytes @ 0xE0001000) -- CPU_WriteMem(4 bytes @ 0xE0001000) -- CPU_ReadMem(4 bytes @ 0xE000ED88) -- CPU_WriteMem(4 bytes @ 0xE000ED88)
 -- CPU_ReadMem(4 bytes @ 0xE000ED88) -- CPU_WriteMem(4 bytes @ 0xE000ED88)CoreSight components:ROMTbl[0] @ E00FF000 -- CPU_ReadMem(16 bytes @ 0xE00FF000) -- CPU_ReadMem(16 bytes @ 0xE000EFF0) -- CPU_ReadMem(16 bytes @ 0xE000EFE0)ROMTbl[0][0]: E000E000, CID: B105E00D, PID: 001BB000 SCS -- CPU_ReadMem(16 bytes @ 0xE0001FF0) -- CPU_ReadMem(16 bytes @ 0xE0001FE0)ROMTbl[0][1]: E0001000, CID: B105E00D, PID: 001BB002 DWT -- CPU_ReadMem(16 bytes @ 0xE0002FF0) -- CPU_ReadMem(16 bytes @ 0xE0002FE0)
ROMTbl[0][2]: E0002000, CID: B105E00D, PID: 000BB003 FPB -- CPU_ReadMem(16 bytes @ 0xE0000FF0) -- CPU_ReadMem(16 bytes @ 0xE0000FE0)ROMTbl[0][3]: E0000000, CID: B105E00D, PID: 001BB001 ITM -- CPU_ReadMem(16 bytes @ 0xE00FF010) -- CPU_ReadMem(16 bytes @ 0xE0040FF0) -- CPU_ReadMem(16 bytes @ 0xE0040FE0)ROMTbl[0][4]: E0040000, CID: B105900D, PID: 001BB923 TPIU-Lite -- CPU_ReadMem(16 bytes @ 0xE0041FF0) -- CPU_ReadMem(16 bytes @ 0xE0041FE0)ROMTbl[0][5]: E0041000, CID: B105900D, PID: 101BB924 ETM-M3
 >0x0D TIF> >0x21 TIF>  returns 0x1BA01477 (0149ms, 1342ms total)
T57E0 175:460 JLINK_GetDLLVersion()  returns 63008 (0000ms, 1342ms total)
T57E0 175:460 JLINK_CORE_GetFound()  returns 0x30000FF (0000ms, 1342ms total)
T57E0 175:460 JLINK_GetDebugInfo(0x100 = JLINKARM_ROM_TABLE_ADDR_INDEX) -- Value=0xE00FF000  returns 0x00 (0000ms, 1342ms total)
T57E0 175:460 JLINK_GetDebugInfo(0x100 = JLINKARM_ROM_TABLE_ADDR_INDEX) -- Value=0xE00FF000  returns 0x00 (0000ms, 1342ms total)
T57E0 175:460 JLINK_GetDebugInfo(0x101 = JLINKARM_DEBUG_INFO_ETM_ADDR_INDEX) -- Value=0xE0041000  returns 0x00 (0000ms, 1342ms total)
T57E0 175:460 JLINK_ReadMemEx(0xE0041FD0, 0x0020 Bytes, ..., Flags = 0x02000004) -- CPU_ReadMem(32 bytes @ 0xE0041FD0) - Data: 04 00 00 00 00 00 00 00 00 00 00 00 00 00 00 00 ...  returns 0x20 (0000ms, 1342ms total)
T57E0 175:460 JLINK_GetDebugInfo(0x102 = JLINKARM_DEBUG_INFO_MTB_ADDR_INDEX) -- Value=0x00000000  returns 0x00 (0000ms, 1342ms total)
T57E0 175:460 JLINK_GetDebugInfo(0x103 = JLINKARM_DEBUG_INFO_TPIU_ADDR_INDEX) -- Value=0xE0040000  returns 0x00 (0000ms, 1342ms total)
T57E0 175:460 JLINK_GetDebugInfo(0x104 = JLINKARM_DEBUG_INFO_ITM_ADDR_INDEX) -- Value=0xE0000000  returns 0x00 (0000ms, 1342ms total)
T57E0 175:460 JLINK_GetDebugInfo(0x105 = JLINKARM_DEBUG_INFO_DWT_ADDR_INDEX) -- Value=0xE0001000  returns 0x00 (0000ms, 1342ms total)
T57E0 175:460 JLINK_GetDebugInfo(0x106 = JLINKARM_DEBUG_INFO_FPB_ADDR_INDEX) -- Value=0xE0002000  returns 0x00 (0000ms, 1342ms total)
T57E0 175:460 JLINK_GetDebugInfo(0x107 = JLINKARM_DEBUG_INFO_NVIC_ADDR_INDEX) -- Value=0xE000E000  returns 0x00 (0001ms, 1343ms total)
T57E0 175:461 JLINK_GetDebugInfo(0x10C = JLINKARM_DEBUG_INFO_DBG_ADDR_INDEX) -- Value=0xE000EDF0  returns 0x00 (0000ms, 1343ms total)
T57E0 175:461 JLINK_GetDebugInfo(0x01 = Unknown) -- Value=0x00000000  returns 0x00 (0000ms, 1343ms total)
T57E0 175:461 JLINK_ReadMemU32(0xE000ED00, 0x0001 Items, ...) -- CPU_ReadMem(4 bytes @ 0xE000ED00) - Data: 31 C2 1F 41  returns 0x01 (0000ms, 1343ms total)
T57E0 175:461 JLINK_GetDebugInfo(0x10F = JLINKARM_DEBUG_INFO_HAS_CORTEX_M_SECURITY_EXT_INDEX) -- Value=0x00000000  returns 0x00 (0000ms, 1343ms total)
T57E0 175:461 JLINK_SetResetType(JLINKARM_CM3_RESET_TYPE_NORMAL)  returns JLINKARM_CM3_RESET_TYPE_NORMAL (0000ms, 1343ms total)
T57E0 175:461 JLINK_Reset() -- CPU is running -- CPU_WriteMem(4 bytes @ 0xE000EDF0) -- CPU is running -- CPU_WriteMem(4 bytes @ 0xE000EDFC)Reset: Halt core after reset via DEMCR.VC_CORERESET. >0x35 TIF>Reset: Reset device via AIRCR.SYSRESETREQ. -- CPU is running -- CPU_WriteMem(4 bytes @ 0xE000ED0C) >0x0D TIF> >0x28 TIF> -- CPU_ReadMem(4 bytes @ 0xE000EDF0) -- CPU_ReadMem(4 bytes @ 0xE000EDF0) -- CPU is running -- CPU_WriteMem(4 bytes @ 0xE000EDF0) -- CPU is running -- CPU_WriteMem(4 bytes @ 0xE000EDFC)
 -- CPU_ReadMem(4 bytes @ 0xE000EDF0) -- CPU_WriteMem(4 bytes @ 0xE0002000) -- CPU_ReadMem(4 bytes @ 0xE000EDFC) -- CPU_ReadMem(4 bytes @ 0xE0001000) (0067ms, 1410ms total)
T57E0 175:528 JLINK_ReadReg(R15 (PC))  returns 0x080001F8 (0000ms, 1410ms total)
T57E0 175:528 JLINK_ReadReg(XPSR)  returns 0x01000000 (0000ms, 1410ms total)
T57E0 175:528 JLINK_Halt()  returns 0x00 (0000ms, 1410ms total)
T57E0 175:528 JLINK_ReadMemU32(0xE000EDF0, 0x0001 Items, ...) -- CPU_ReadMem(4 bytes @ 0xE000EDF0) - Data: 03 00 03 00  returns 0x01 (0000ms, 1410ms total)
T57E0 175:528 JLINK_WriteU32(0xE000EDF0, 0xA05F0003) -- CPU_WriteMem(4 bytes @ 0xE000EDF0)  returns 0x00 (0001ms, 1411ms total)
T57E0 175:529 JLINK_WriteU32(0xE000EDFC, 0x01000000) -- CPU_WriteMem(4 bytes @ 0xE000EDFC)  returns 0x00 (0000ms, 1411ms total)
T57E0 175:529 JLINK_GetHWStatus(...)  returns 0x00 (0001ms, 1412ms total)
T57E0 175:530 JLINK_GetNumBPUnits(Type = 0xFFFFFF00)  returns 0x06 (0000ms, 1412ms total)
T57E0 175:530 JLINK_GetNumBPUnits(Type = 0xF0)  returns 0x2000 (0000ms, 1412ms total)
T57E0 175:530 JLINK_GetNumWPUnits()  returns 0x04 (0000ms, 1412ms total)
T57E0 175:530 JLINK_GetSpeed()  returns 0xFA0 (0000ms, 1412ms total)
T57E0 175:530 JLINK_ReadMemU32(0xE000E004, 0x0001 Items, ...) -- CPU_ReadMem(4 bytes @ 0xE000E004) - Data: 01 00 00 00  returns 0x01 (0000ms, 1412ms total)
T57E0 175:530 JLINK_ReadMemU32(0xE000E004, 0x0001 Items, ...) -- CPU_ReadMem(4 bytes @ 0xE000E004) - Data: 01 00 00 00  returns 0x01 (0000ms, 1412ms total)
T57E0 175:530 JLINK_WriteMemEx(0xE0001000, 0x001C Bytes, ..., Flags = 0x02000004) - Data: 01 00 00 00 00 00 00 00 00 00 00 00 00 00 00 00 ... -- CPU_WriteMem(28 bytes @ 0xE0001000)  returns 0x1C (0001ms, 1413ms total)
T57E0 175:531 JLINK_ReadReg(R15 (PC))  returns 0x080001F8 (0000ms, 1413ms total)
T57E0 175:531 JLINK_ReadReg(XPSR)  returns 0x01000000 (0000ms, 1413ms total)
T57E0 175:612 JLINK_SetResetType(JLINKARM_CM3_RESET_TYPE_NORMAL)  returns JLINKARM_CM3_RESET_TYPE_NORMAL (0000ms, 1413ms total)
T57E0 175:612 JLINK_Reset() -- CPU_WriteMem(4 bytes @ 0xE000EDF0) -- CPU_WriteMem(4 bytes @ 0xE000EDFC)Reset: Halt core after reset via DEMCR.VC_CORERESET. >0x35 TIF>Reset: Reset device via AIRCR.SYSRESETREQ. -- CPU_WriteMem(4 bytes @ 0xE000ED0C) >0x0D TIF> >0x28 TIF> -- CPU_ReadMem(4 bytes @ 0xE000EDF0) -- CPU_ReadMem(4 bytes @ 0xE000EDF0) -- CPU_WriteMem(4 bytes @ 0xE000EDF0) -- CPU_WriteMem(4 bytes @ 0xE000EDFC) -- CPU_ReadMem(4 bytes @ 0xE000EDF0) -- CPU_WriteMem(4 bytes @ 0xE0002000)
 -- CPU_ReadMem(4 bytes @ 0xE000EDFC) -- CPU_ReadMem(4 bytes @ 0xE0001000) (0066ms, 1479ms total)
T57E0 175:678 JLINK_ReadReg(R15 (PC))  returns 0x080001F8 (0000ms, 1479ms total)
T57E0 175:678 JLINK_ReadReg(XPSR)  returns 0x01000000 (0000ms, 1479ms total)
T57E0 175:763 JLINK_ReadMemEx(0x080001F8, 0x003C Bytes, ..., Flags = 0x02000000) -- CPU_ReadMem(128 bytes @ 0x080001C0) -- Updating C cache (128 bytes @ 0x080001C0) -- Read from C cache (60 bytes @ 0x080001F8) - Data: 09 48 80 47 09 48 00 47 FE E7 FE E7 FE E7 FE E7 ...  returns 0x3C (0001ms, 1480ms total)
T3F58 176:438 JLINK_ReadMemEx(0x080001F8, 0x0002 Bytes, ..., Flags = 0x02000000) -- Read from C cache (2 bytes @ 0x080001F8) - Data: 09 48  returns 0x02 (0000ms, 1480ms total)
T3F58 176:438 JLINK_SetBPEx(Addr = 0x08001E90, Type = 0xFFFFFFF2)  returns 0x00000001 (0000ms, 1480ms total)
T3F58 176:438 JLINK_Go() -- CPU_WriteMem(4 bytes @ 0xE0002000) -- CPU_ReadMem(4 bytes @ 0xE0001000) -- CPU_WriteMem(4 bytes @ 0xE0002008) -- CPU_WriteMem(4 bytes @ 0xE000200C) -- CPU_WriteMem(4 bytes @ 0xE0002010) -- CPU_WriteMem(4 bytes @ 0xE0002014) -- CPU_WriteMem(4 bytes @ 0xE0002018) -- CPU_WriteMem(4 bytes @ 0xE000201C) -- CPU_WriteMem(4 bytes @ 0xE0001004) (0003ms, 1483ms total)
T3F58 176:542 JLINK_IsHalted()  returns TRUE (0002ms, 1485ms total)
T3F58 176:544 JLINK_Halt()  returns 0x00 (0000ms, 1483ms total)
T3F58 176:544 JLINK_IsHalted()  returns TRUE (0000ms, 1483ms total)
T3F58 176:544 JLINK_IsHalted()  returns TRUE (0000ms, 1483ms total)
T3F58 176:544 JLINK_IsHalted()  returns TRUE (0000ms, 1483ms total)
T3F58 176:544 JLINK_ReadReg(R15 (PC))  returns 0x080009B4 (0000ms, 1483ms total)
T3F58 176:544 JLINK_ReadReg(XPSR)  returns 0x21000000 (0000ms, 1483ms total)
T3F58 176:544 JLINK_ClrBPEx(BPHandle = 0x00000001)  returns 0x00 (0000ms, 1483ms total)
T3F58 176:544 JLINK_ReadMemU32(0xE000ED30, 0x0001 Items, ...) -- CPU_ReadMem(4 bytes @ 0xE000ED30) - Data: 02 00 00 00  returns 0x01 (0000ms, 1483ms total)
T3F58 176:544 JLINK_ReadMemU32(0xE0001028, 0x0001 Items, ...) -- CPU_ReadMem(4 bytes @ 0xE0001028) - Data: 00 00 00 00  returns 0x01 (0000ms, 1483ms total)
T3F58 176:544 JLINK_ReadMemU32(0xE0001038, 0x0001 Items, ...) -- CPU_ReadMem(4 bytes @ 0xE0001038) - Data: 00 02 00 00  returns 0x01 (0001ms, 1484ms total)
T3F58 176:545 JLINK_ReadMemU32(0xE0001048, 0x0001 Items, ...) -- CPU_ReadMem(4 bytes @ 0xE0001048) - Data: 00 00 00 00  returns 0x01 (0000ms, 1484ms total)
T3F58 176:545 JLINK_ReadMemU32(0xE0001058, 0x0001 Items, ...) -- CPU_ReadMem(4 bytes @ 0xE0001058) - Data: 00 00 00 00  returns 0x01 (0000ms, 1484ms total)
T3F58 176:545 JLINK_ReadReg(R0)  returns 0x00000001 (0000ms, 1484ms total)
T3F58 176:545 JLINK_ReadReg(R1)  returns 0x20000998 (0000ms, 1484ms total)
T3F58 176:545 JLINK_ReadReg(R2)  returns 0x80000000 (0000ms, 1484ms total)
T3F58 176:545 JLINK_ReadReg(R3)  returns 0x08003382 (0000ms, 1484ms total)
T3F58 176:545 JLINK_ReadReg(R4)  returns 0x00000000 (0000ms, 1484ms total)
T3F58 176:545 JLINK_ReadReg(R5)  returns 0x00000001 (0000ms, 1484ms total)
T3F58 176:545 JLINK_ReadReg(R6)  returns 0x20000284 (0000ms, 1484ms total)
T3F58 176:545 JLINK_ReadReg(R7)  returns 0x08003381 (0000ms, 1484ms total)
T3F58 176:545 JLINK_ReadReg(R8)  returns 0x00000000 (0000ms, 1484ms total)
T3F58 176:545 JLINK_ReadReg(R9)  returns 0x20000160 (0000ms, 1484ms total)
T3F58 176:545 JLINK_ReadReg(R10)  returns 0x080033B0 (0000ms, 1484ms total)
T3F58 176:545 JLINK_ReadReg(R11)  returns 0x00000000 (0000ms, 1484ms total)
T3F58 176:545 JLINK_ReadReg(R12)  returns 0x00000000 (0000ms, 1484ms total)
T3F58 176:545 JLINK_ReadReg(R13 (SP))  returns 0x20000998 (0000ms, 1484ms total)
T3F58 176:545 JLINK_ReadReg(R14)  returns 0x080009AF (0000ms, 1484ms total)
T3F58 176:545 JLINK_ReadReg(R15 (PC))  returns 0x080009B4 (0000ms, 1484ms total)
T3F58 176:545 JLINK_ReadReg(XPSR)  returns 0x21000000 (0000ms, 1484ms total)
T3F58 176:545 JLINK_ReadReg(MSP)  returns 0x20000998 (0000ms, 1484ms total)
T3F58 176:545 JLINK_ReadReg(PSP)  returns 0x20001000 (0000ms, 1484ms total)
T3F58 176:545 JLINK_ReadReg(CFBP)  returns 0x00000000 (0000ms, 1484ms total)
T57E0 176:546 JLINK_ReadMemEx(0x200009A4, 0x0004 Bytes, ..., Flags = 0x02000000) -- CPU_ReadMem(64 bytes @ 0x20000980) -- Updating C cache (64 bytes @ 0x20000980) -- Read from C cache (4 bytes @ 0x200009A4) - Data: 2B 0D 00 08  returns 0x04 (0000ms, 1484ms total)
T57E0 176:546 JLINK_ReadMemEx(0x200009BC, 0x0004 Bytes, ..., Flags = 0x02000000) -- Read from C cache (4 bytes @ 0x200009BC) - Data: B1 08 00 08  returns 0x04 (0000ms, 1484ms total)
T57E0 176:546 JLINK_ReadMemEx(0x200009A8, 0x0004 Bytes, ..., Flags = 0x02000000) -- Read from C cache (4 bytes @ 0x200009A8) - Data: 00 00 00 00  returns 0x04 (0000ms, 1484ms total)
T57E0 176:546 JLINK_ReadMemEx(0x200009AC, 0x0004 Bytes, ..., Flags = 0x02000000) -- Read from C cache (4 bytes @ 0x200009AC) - Data: 80 03 00 20  returns 0x04 (0000ms, 1484ms total)
T57E0 176:546 JLINK_ReadMemEx(0x200009B0, 0x0004 Bytes, ..., Flags = 0x02000000) -- Read from C cache (4 bytes @ 0x200009B0) - Data: 00 00 00 00  returns 0x04 (0000ms, 1484ms total)
T57E0 176:546 JLINK_ReadMemEx(0x200009B4, 0x0004 Bytes, ..., Flags = 0x02000000) -- Read from C cache (4 bytes @ 0x200009B4) - Data: 00 00 00 00  returns 0x04 (0000ms, 1484ms total)
T57E0 176:546 JLINK_ReadMemEx(0x200009B8, 0x0004 Bytes, ..., Flags = 0x02000000) -- Read from C cache (4 bytes @ 0x200009B8) - Data: 00 00 00 00  returns 0x04 (0000ms, 1484ms total)
T57E0 176:546 JLINK_ReadMemEx(0x200009C4, 0x0004 Bytes, ..., Flags = 0x02000000) -- CPU_ReadMem(64 bytes @ 0x200009C0) -- Updating C cache (64 bytes @ 0x200009C0) -- Read from C cache (4 bytes @ 0x200009C4) - Data: CF 01 00 08  returns 0x04 (0001ms, 1485ms total)
T57E0 176:547 JLINK_ReadMemEx(0x200009C0, 0x0004 Bytes, ..., Flags = 0x02000000) -- Read from C cache (4 bytes @ 0x200009C0) - Data: 00 00 00 00  returns 0x04 (0000ms, 1485ms total)
T57E0 176:549 JLINK_ReadMemU32(0xE0001004, 0x0001 Items, ...) -- CPU_ReadMem(4 bytes @ 0xE0001004) - Data: 33 1B 00 00  returns 0x01 (0001ms, 1486ms total)
T57E0 176:550 JLINK_ReadMemEx(0x080009B4, 0x003C Bytes, ..., Flags = 0x02000000) -- CPU_ReadMem(128 bytes @ 0x08000980) -- Updating C cache (128 bytes @ 0x08000980) -- Read from C cache (60 bytes @ 0x080009B4) - Data: AB BE 0E BD 08 B5 69 46 00 90 02 20 AB BE 08 BD ...  returns 0x3C (0001ms, 1487ms total)
T57E0 193:555 JLINK_ReadMemEx(0x080001F8, 0x003C Bytes, ..., Flags = 0x02000000) -- CPU_ReadMem(128 bytes @ 0x080001C0) -- Updating C cache (128 bytes @ 0x080001C0) -- Read from C cache (60 bytes @ 0x080001F8) - Data: 09 48 80 47 09 48 00 47 FE E7 FE E7 FE E7 FE E7 ...  returns 0x3C (0001ms, 1488ms total)
T3F58 198:810 JLINK_ReadMemEx(0x080009B4, 0x0002 Bytes, ..., Flags = 0x02000000) -- Read from C cache (2 bytes @ 0x080009B4) - Data: AB BE  returns 0x02 (0000ms, 1488ms total)
T3F58 198:810 JLINK_WriteReg(R15 (PC), 0x080009B6)  returns 0x00 (0001ms, 1489ms total)
T3F58 198:811 JLINK_ReadReg(R0)  returns 0x00000001 (0000ms, 1489ms total)
T3F58 198:811 JLINK_ReadReg(R1)  returns 0x20000998 (0000ms, 1489ms total)
T3F58 198:811 JLINK_ReadReg(R2)  returns 0x80000000 (0000ms, 1489ms total)
T3F58 198:811 JLINK_ReadReg(R3)  returns 0x08003382 (0000ms, 1489ms total)
T3F58 198:811 JLINK_ReadReg(R4)  returns 0x00000000 (0000ms, 1489ms total)
T3F58 198:811 JLINK_ReadReg(R5)  returns 0x00000001 (0000ms, 1489ms total)
T3F58 198:811 JLINK_ReadReg(R6)  returns 0x20000284 (0000ms, 1489ms total)
T3F58 198:811 JLINK_ReadReg(R7)  returns 0x08003381 (0000ms, 1489ms total)
T3F58 198:811 JLINK_ReadReg(R8)  returns 0x00000000 (0000ms, 1489ms total)
T3F58 198:811 JLINK_ReadReg(R9)  returns 0x20000160 (0000ms, 1489ms total)
T3F58 198:811 JLINK_ReadReg(R10)  returns 0x080033B0 (0000ms, 1489ms total)
T3F58 198:811 JLINK_ReadReg(R11)  returns 0x00000000 (0000ms, 1489ms total)
T3F58 198:811 JLINK_ReadReg(R12)  returns 0x00000000 (0000ms, 1489ms total)
T3F58 198:811 JLINK_ReadReg(R13 (SP))  returns 0x20000998 (0000ms, 1489ms total)
T3F58 198:811 JLINK_ReadReg(R14)  returns 0x080009AF (0000ms, 1489ms total)
T3F58 198:811 JLINK_ReadReg(R15 (PC))  returns 0x080009B6 (0000ms, 1489ms total)
T3F58 198:811 JLINK_ReadReg(XPSR)  returns 0x21000000 (0000ms, 1489ms total)
T3F58 198:811 JLINK_ReadReg(MSP)  returns 0x20000998 (0000ms, 1489ms total)
T3F58 198:811 JLINK_ReadReg(PSP)  returns 0x20001000 (0000ms, 1489ms total)
T3F58 198:811 JLINK_ReadReg(CFBP)  returns 0x00000000 (0000ms, 1489ms total)
T57E0 198:812 JLINK_ReadMemEx(0x200009A4, 0x0004 Bytes, ..., Flags = 0x02000000) -- Read from C cache (4 bytes @ 0x200009A4) - Data: 2B 0D 00 08  returns 0x04 (0000ms, 1489ms total)
T57E0 198:812 JLINK_ReadMemEx(0x200009BC, 0x0004 Bytes, ..., Flags = 0x02000000) -- Read from C cache (4 bytes @ 0x200009BC) - Data: B1 08 00 08  returns 0x04 (0000ms, 1489ms total)
T57E0 198:812 JLINK_ReadMemEx(0x200009A8, 0x0004 Bytes, ..., Flags = 0x02000000) -- Read from C cache (4 bytes @ 0x200009A8) - Data: 00 00 00 00  returns 0x04 (0000ms, 1489ms total)
T57E0 198:812 JLINK_ReadMemEx(0x200009AC, 0x0004 Bytes, ..., Flags = 0x02000000) -- Read from C cache (4 bytes @ 0x200009AC) - Data: 80 03 00 20  returns 0x04 (0000ms, 1489ms total)
T57E0 198:812 JLINK_ReadMemEx(0x200009B0, 0x0004 Bytes, ..., Flags = 0x02000000) -- Read from C cache (4 bytes @ 0x200009B0) - Data: 00 00 00 00  returns 0x04 (0000ms, 1489ms total)
T57E0 198:812 JLINK_ReadMemEx(0x200009B4, 0x0004 Bytes, ..., Flags = 0x02000000) -- Read from C cache (4 bytes @ 0x200009B4) - Data: 00 00 00 00  returns 0x04 (0000ms, 1489ms total)
T57E0 198:812 JLINK_ReadMemEx(0x200009B8, 0x0004 Bytes, ..., Flags = 0x02000000) -- Read from C cache (4 bytes @ 0x200009B8) - Data: 00 00 00 00  returns 0x04 (0000ms, 1489ms total)
T57E0 198:812 JLINK_ReadMemEx(0x200009C4, 0x0004 Bytes, ..., Flags = 0x02000000) -- Read from C cache (4 bytes @ 0x200009C4) - Data: CF 01 00 08  returns 0x04 (0000ms, 1489ms total)
T57E0 198:812 JLINK_ReadMemEx(0x200009C0, 0x0004 Bytes, ..., Flags = 0x02000000) -- Read from C cache (4 bytes @ 0x200009C0) - Data: 00 00 00 00  returns 0x04 (0000ms, 1489ms total)
T57E0 198:812 JLINK_ReadMemU32(0xE0001004, 0x0001 Items, ...) - Data: 33 1B 00 00  returns 0x01 (0000ms, 1489ms total)
T57E0 198:812 JLINK_ReadMemEx(0x080009B6, 0x0002 Bytes, ..., Flags = 0x02000000) -- Read from C cache (2 bytes @ 0x080009B6) - Data: 0E BD  returns 0x02 (0000ms, 1489ms total)
T57E0 198:812 JLINK_ReadMemEx(0x080009B8, 0x003C Bytes, ..., Flags = 0x02000000) -- Read from C cache (60 bytes @ 0x080009B8) - Data: 08 B5 69 46 00 90 02 20 AB BE 08 BD 1F B5 8D E8 ...  returns 0x3C (0000ms, 1489ms total)
T3F58 200:297 JLINK_ReadMemEx(0x080009B6, 0x0002 Bytes, ..., Flags = 0x02000000) -- Read from C cache (2 bytes @ 0x080009B6) - Data: 0E BD  returns 0x02 (0000ms, 1489ms total)
T3F58 200:297 JLINK_Step() -- Read from C cache (2 bytes @ 0x080009B6) -- CPU_ReadMem(4 bytes @ 0xE000ED18) -- CPU_WriteMem(4 bytes @ 0xE000ED18) -- CPU_ReadMem(4 bytes @ 0xE000ED18) -- CPU_WriteMem(4 bytes @ 0xE000ED18) -- Read from C cache (16 bytes @ 0x20000998) -- Simulated  returns 0x00 (0003ms, 1492ms total)
T3F58 200:300 JLINK_ReadReg(R15 (PC))  returns 0x08000D2A (0000ms, 1492ms total)
T3F58 200:300 JLINK_ReadReg(XPSR)  returns 0x21000000 (0000ms, 1492ms total)
T3F58 200:300 JLINK_ReadReg(R0)  returns 0x00000001 (0000ms, 1492ms total)
T3F58 200:300 JLINK_ReadReg(R1)  returns 0x08003381 (0000ms, 1492ms total)
T3F58 200:300 JLINK_ReadReg(R2)  returns 0x00000000 (0000ms, 1492ms total)
T3F58 200:300 JLINK_ReadReg(R3)  returns 0x00000003 (0000ms, 1492ms total)
T3F58 200:300 JLINK_ReadReg(R4)  returns 0x00000000 (0000ms, 1492ms total)
T3F58 200:300 JLINK_ReadReg(R5)  returns 0x00000001 (0000ms, 1492ms total)
T3F58 200:300 JLINK_ReadReg(R6)  returns 0x20000284 (0000ms, 1492ms total)
T3F58 200:300 JLINK_ReadReg(R7)  returns 0x08003381 (0000ms, 1492ms total)
T3F58 200:300 JLINK_ReadReg(R8)  returns 0x00000000 (0000ms, 1492ms total)
T3F58 200:300 JLINK_ReadReg(R9)  returns 0x20000160 (0000ms, 1492ms total)
T3F58 200:300 JLINK_ReadReg(R10)  returns 0x080033B0 (0000ms, 1492ms total)
T3F58 200:300 JLINK_ReadReg(R11)  returns 0x00000000 (0000ms, 1492ms total)
T3F58 200:300 JLINK_ReadReg(R12)  returns 0x00000000 (0000ms, 1492ms total)
T3F58 200:300 JLINK_ReadReg(R13 (SP))  returns 0x200009A8 (0000ms, 1492ms total)
T3F58 200:300 JLINK_ReadReg(R14)  returns 0x080009AF (0000ms, 1492ms total)
T3F58 200:300 JLINK_ReadReg(R15 (PC))  returns 0x08000D2A (0000ms, 1492ms total)
T3F58 200:300 JLINK_ReadReg(XPSR)  returns 0x21000000 (0000ms, 1492ms total)
T3F58 200:300 JLINK_ReadReg(MSP)  returns 0x200009A8 (0000ms, 1492ms total)
T3F58 200:300 JLINK_ReadReg(PSP)  returns 0x20001000 (0000ms, 1492ms total)
T3F58 200:300 JLINK_ReadReg(CFBP)  returns 0x00000000 (0000ms, 1492ms total)
T57E0 200:300 JLINK_ReadMemEx(0x200009BC, 0x0004 Bytes, ..., Flags = 0x02000000) -- Read from C cache (4 bytes @ 0x200009BC) - Data: B1 08 00 08  returns 0x04 (0000ms, 1492ms total)
T57E0 200:300 JLINK_ReadMemEx(0x200009A8, 0x0004 Bytes, ..., Flags = 0x02000000) -- Read from C cache (4 bytes @ 0x200009A8) - Data: 00 00 00 00  returns 0x04 (0000ms, 1492ms total)
T57E0 200:300 JLINK_ReadMemEx(0x200009AC, 0x0004 Bytes, ..., Flags = 0x02000000) -- Read from C cache (4 bytes @ 0x200009AC) - Data: 80 03 00 20  returns 0x04 (0000ms, 1492ms total)
T57E0 200:300 JLINK_ReadMemEx(0x200009B0, 0x0004 Bytes, ..., Flags = 0x02000000) -- Read from C cache (4 bytes @ 0x200009B0) - Data: 00 00 00 00  returns 0x04 (0000ms, 1492ms total)
T57E0 200:300 JLINK_ReadMemEx(0x200009B4, 0x0004 Bytes, ..., Flags = 0x02000000) -- Read from C cache (4 bytes @ 0x200009B4) - Data: 00 00 00 00  returns 0x04 (0000ms, 1492ms total)
T57E0 200:300 JLINK_ReadMemEx(0x200009B8, 0x0004 Bytes, ..., Flags = 0x02000000) -- Read from C cache (4 bytes @ 0x200009B8) - Data: 00 00 00 00  returns 0x04 (0000ms, 1492ms total)
T57E0 200:300 JLINK_ReadMemEx(0x200009C4, 0x0004 Bytes, ..., Flags = 0x02000000) -- Read from C cache (4 bytes @ 0x200009C4) - Data: CF 01 00 08  returns 0x04 (0000ms, 1492ms total)
T57E0 200:300 JLINK_ReadMemEx(0x200009C0, 0x0004 Bytes, ..., Flags = 0x02000000) -- Read from C cache (4 bytes @ 0x200009C0) - Data: 00 00 00 00  returns 0x04 (0000ms, 1492ms total)
T57E0 200:309 JLINK_ReadMemU32(0xE0001004, 0x0001 Items, ...) - Data: 38 1B 00 00  returns 0x01 (0000ms, 1492ms total)
T57E0 200:309 JLINK_ReadMemEx(0x08000D2A, 0x0002 Bytes, ..., Flags = 0x02000000) -- CPU_ReadMem(64 bytes @ 0x08000D00) -- Updating C cache (64 bytes @ 0x08000D00) -- Read from C cache (2 bytes @ 0x08000D2A) - Data: 41 1C  returns 0x02 (0001ms, 1493ms total)
T57E0 200:310 JLINK_ReadMemEx(0x08000D2C, 0x003C Bytes, ..., Flags = 0x02000000) -- CPU_ReadMem(64 bytes @ 0x08000D40) -- Updating C cache (64 bytes @ 0x08000D40) -- Read from C cache (60 bytes @ 0x08000D2C) - Data: 15 D0 00 21 31 61 71 60 4F F4 00 71 F5 60 F1 61 ...  returns 0x3C (0000ms, 1493ms total)
T3F58 201:257 JLINK_ReadMemEx(0x08000D2A, 0x0002 Bytes, ..., Flags = 0x02000000) -- Read from C cache (2 bytes @ 0x08000D2A) - Data: 41 1C  returns 0x02 (0001ms, 1494ms total)
T3F58 201:258 JLINK_Step() -- Read from C cache (2 bytes @ 0x08000D2A) -- Simulated  returns 0x00 (0000ms, 1494ms total)
T3F58 201:258 JLINK_ReadReg(R15 (PC))  returns 0x08000D2C (0000ms, 1494ms total)
T3F58 201:258 JLINK_ReadReg(XPSR)  returns 0x01000000 (0000ms, 1494ms total)
T3F58 201:258 JLINK_ReadReg(R0)  returns 0x00000001 (0000ms, 1494ms total)
T3F58 201:258 JLINK_ReadReg(R1)  returns 0x00000002 (0000ms, 1494ms total)
T3F58 201:258 JLINK_ReadReg(R2)  returns 0x00000000 (0000ms, 1494ms total)
T3F58 201:258 JLINK_ReadReg(R3)  returns 0x00000003 (0000ms, 1494ms total)
T3F58 201:258 JLINK_ReadReg(R4)  returns 0x00000000 (0000ms, 1494ms total)
T3F58 201:258 JLINK_ReadReg(R5)  returns 0x00000001 (0000ms, 1494ms total)
T3F58 201:258 JLINK_ReadReg(R6)  returns 0x20000284 (0000ms, 1494ms total)
T3F58 201:258 JLINK_ReadReg(R7)  returns 0x08003381 (0000ms, 1494ms total)
T3F58 201:258 JLINK_ReadReg(R8)  returns 0x00000000 (0000ms, 1494ms total)
T3F58 201:258 JLINK_ReadReg(R9)  returns 0x20000160 (0000ms, 1494ms total)
T3F58 201:258 JLINK_ReadReg(R10)  returns 0x080033B0 (0000ms, 1494ms total)
T3F58 201:258 JLINK_ReadReg(R11)  returns 0x00000000 (0000ms, 1494ms total)
T3F58 201:258 JLINK_ReadReg(R12)  returns 0x00000000 (0000ms, 1494ms total)
T3F58 201:258 JLINK_ReadReg(R13 (SP))  returns 0x200009A8 (0000ms, 1494ms total)
T3F58 201:258 JLINK_ReadReg(R14)  returns 0x080009AF (0000ms, 1494ms total)
T3F58 201:258 JLINK_ReadReg(R15 (PC))  returns 0x08000D2C (0000ms, 1494ms total)
T3F58 201:258 JLINK_ReadReg(XPSR)  returns 0x01000000 (0000ms, 1494ms total)
T3F58 201:258 JLINK_ReadReg(MSP)  returns 0x200009A8 (0000ms, 1494ms total)
T3F58 201:258 JLINK_ReadReg(PSP)  returns 0x20001000 (0000ms, 1494ms total)
T3F58 201:258 JLINK_ReadReg(CFBP)  returns 0x00000000 (0001ms, 1495ms total)
T57E0 201:259 JLINK_ReadMemEx(0x200009BC, 0x0004 Bytes, ..., Flags = 0x02000000) -- Read from C cache (4 bytes @ 0x200009BC) - Data: B1 08 00 08  returns 0x04 (0000ms, 1495ms total)
T57E0 201:259 JLINK_ReadMemEx(0x200009A8, 0x0004 Bytes, ..., Flags = 0x02000000) -- Read from C cache (4 bytes @ 0x200009A8) - Data: 00 00 00 00  returns 0x04 (0000ms, 1495ms total)
T57E0 201:259 JLINK_ReadMemEx(0x200009AC, 0x0004 Bytes, ..., Flags = 0x02000000) -- Read from C cache (4 bytes @ 0x200009AC) - Data: 80 03 00 20  returns 0x04 (0000ms, 1495ms total)
T57E0 201:259 JLINK_ReadMemEx(0x200009B0, 0x0004 Bytes, ..., Flags = 0x02000000) -- Read from C cache (4 bytes @ 0x200009B0) - Data: 00 00 00 00  returns 0x04 (0001ms, 1496ms total)
T57E0 201:260 JLINK_ReadMemEx(0x200009B4, 0x0004 Bytes, ..., Flags = 0x02000000) -- Read from C cache (4 bytes @ 0x200009B4) - Data: 00 00 00 00  returns 0x04 (0000ms, 1496ms total)
T57E0 201:260 JLINK_ReadMemEx(0x200009B8, 0x0004 Bytes, ..., Flags = 0x02000000) -- Read from C cache (4 bytes @ 0x200009B8) - Data: 00 00 00 00  returns 0x04 (0000ms, 1496ms total)
T57E0 201:260 JLINK_ReadMemEx(0x200009C4, 0x0004 Bytes, ..., Flags = 0x02000000) -- Read from C cache (4 bytes @ 0x200009C4) - Data: CF 01 00 08  returns 0x04 (0000ms, 1496ms total)
T57E0 201:260 JLINK_ReadMemEx(0x200009C0, 0x0004 Bytes, ..., Flags = 0x02000000) -- Read from C cache (4 bytes @ 0x200009C0) - Data: 00 00 00 00  returns 0x04 (0000ms, 1496ms total)
T57E0 201:260 JLINK_ReadMemU32(0xE0001004, 0x0001 Items, ...) - Data: 39 1B 00 00  returns 0x01 (0000ms, 1496ms total)
T3F58 202:834 JLINK_ReadMemEx(0x08000D2C, 0x003C Bytes, ..., Flags = 0x02000000) -- Read from C cache (60 bytes @ 0x08000D2C) - Data: 15 D0 00 21 31 61 71 60 4F F4 00 71 F5 60 F1 61 ...  returns 0x3C (0000ms, 1496ms total)
T3F58 202:834 JLINK_ReadMemEx(0x08000D2C, 0x0002 Bytes, ..., Flags = 0x02000000) -- Read from C cache (2 bytes @ 0x08000D2C) - Data: 15 D0  returns 0x02 (0000ms, 1496ms total)
T3F58 202:834 JLINK_Step() -- Read from C cache (2 bytes @ 0x08000D2C) -- Simulated  returns 0x00 (0000ms, 1496ms total)
T3F58 202:834 JLINK_ReadReg(R15 (PC))  returns 0x08000D2E (0000ms, 1496ms total)
T3F58 202:834 JLINK_ReadReg(XPSR)  returns 0x01000000 (0000ms, 1496ms total)
T3F58 202:834 JLINK_ReadReg(R0)  returns 0x00000001 (0000ms, 1496ms total)
T3F58 202:834 JLINK_ReadReg(R1)  returns 0x00000002 (0000ms, 1496ms total)
T3F58 202:834 JLINK_ReadReg(R2)  returns 0x00000000 (0000ms, 1496ms total)
T3F58 202:834 JLINK_ReadReg(R3)  returns 0x00000003 (0000ms, 1496ms total)
T3F58 202:834 JLINK_ReadReg(R4)  returns 0x00000000 (0000ms, 1496ms total)
T3F58 202:834 JLINK_ReadReg(R5)  returns 0x00000001 (0000ms, 1496ms total)
T3F58 202:834 JLINK_ReadReg(R6)  returns 0x20000284 (0000ms, 1496ms total)
T3F58 202:834 JLINK_ReadReg(R7)  returns 0x08003381 (0000ms, 1496ms total)
T3F58 202:834 JLINK_ReadReg(R8)  returns 0x00000000 (0000ms, 1496ms total)
T3F58 202:834 JLINK_ReadReg(R9)  returns 0x20000160 (0000ms, 1496ms total)
T3F58 202:834 JLINK_ReadReg(R10)  returns 0x080033B0 (0000ms, 1496ms total)
T3F58 202:834 JLINK_ReadReg(R11)  returns 0x00000000 (0000ms, 1496ms total)
T3F58 202:834 JLINK_ReadReg(R12)  returns 0x00000000 (0000ms, 1496ms total)
T3F58 202:834 JLINK_ReadReg(R13 (SP))  returns 0x200009A8 (0000ms, 1496ms total)
T3F58 202:834 JLINK_ReadReg(R14)  returns 0x080009AF (0000ms, 1496ms total)
T3F58 202:834 JLINK_ReadReg(R15 (PC))  returns 0x08000D2E (0000ms, 1496ms total)
T3F58 202:834 JLINK_ReadReg(XPSR)  returns 0x01000000 (0000ms, 1496ms total)
T3F58 202:834 JLINK_ReadReg(MSP)  returns 0x200009A8 (0000ms, 1496ms total)
T3F58 202:834 JLINK_ReadReg(PSP)  returns 0x20001000 (0000ms, 1496ms total)
T3F58 202:834 JLINK_ReadReg(CFBP)  returns 0x00000000 (0000ms, 1496ms total)
T57E0 202:835 JLINK_ReadMemEx(0x200009BC, 0x0004 Bytes, ..., Flags = 0x02000000) -- Read from C cache (4 bytes @ 0x200009BC) - Data: B1 08 00 08  returns 0x04 (0000ms, 1496ms total)
T57E0 202:835 JLINK_ReadMemEx(0x200009A8, 0x0004 Bytes, ..., Flags = 0x02000000) -- Read from C cache (4 bytes @ 0x200009A8) - Data: 00 00 00 00  returns 0x04 (0000ms, 1496ms total)
T57E0 202:835 JLINK_ReadMemEx(0x200009AC, 0x0004 Bytes, ..., Flags = 0x02000000) -- Read from C cache (4 bytes @ 0x200009AC) - Data: 80 03 00 20  returns 0x04 (0000ms, 1496ms total)
T57E0 202:835 JLINK_ReadMemEx(0x200009B0, 0x0004 Bytes, ..., Flags = 0x02000000) -- Read from C cache (4 bytes @ 0x200009B0) - Data: 00 00 00 00  returns 0x04 (0000ms, 1496ms total)
T57E0 202:835 JLINK_ReadMemEx(0x200009B4, 0x0004 Bytes, ..., Flags = 0x02000000) -- Read from C cache (4 bytes @ 0x200009B4) - Data: 00 00 00 00  returns 0x04 (0000ms, 1496ms total)
T57E0 202:835 JLINK_ReadMemEx(0x200009B8, 0x0004 Bytes, ..., Flags = 0x02000000) -- Read from C cache (4 bytes @ 0x200009B8) - Data: 00 00 00 00  returns 0x04 (0000ms, 1496ms total)
T57E0 202:835 JLINK_ReadMemEx(0x200009C4, 0x0004 Bytes, ..., Flags = 0x02000000) -- Read from C cache (4 bytes @ 0x200009C4) - Data: CF 01 00 08  returns 0x04 (0000ms, 1496ms total)
T57E0 202:835 JLINK_ReadMemEx(0x200009C0, 0x0004 Bytes, ..., Flags = 0x02000000) -- Read from C cache (4 bytes @ 0x200009C0) - Data: 00 00 00 00  returns 0x04 (0000ms, 1496ms total)
T57E0 202:835 JLINK_ReadMemU32(0xE0001004, 0x0001 Items, ...) - Data: 3A 1B 00 00  returns 0x01 (0000ms, 1496ms total)
T3F58 203:442 JLINK_ReadMemEx(0x08000D2E, 0x0002 Bytes, ..., Flags = 0x02000000) -- Read from C cache (2 bytes @ 0x08000D2E) - Data: 00 21  returns 0x02 (0000ms, 1496ms total)
T3F58 203:442 JLINK_ReadMemEx(0x08000D30, 0x003C Bytes, ..., Flags = 0x02000000) -- Read from C cache (60 bytes @ 0x08000D30) - Data: 31 61 71 60 4F F4 00 71 F5 60 F1 61 70 61 20 07 ...  returns 0x3C (0000ms, 1496ms total)
T3F58 203:442 JLINK_ReadMemEx(0x08000D2E, 0x0002 Bytes, ..., Flags = 0x02000000) -- Read from C cache (2 bytes @ 0x08000D2E) - Data: 00 21  returns 0x02 (0000ms, 1496ms total)
T3F58 203:442 JLINK_Step() -- Read from C cache (2 bytes @ 0x08000D2E) -- Simulated  returns 0x00 (0001ms, 1497ms total)
T3F58 203:443 JLINK_ReadReg(R15 (PC))  returns 0x08000D30 (0000ms, 1497ms total)
T3F58 203:443 JLINK_ReadReg(XPSR)  returns 0x41000000 (0000ms, 1497ms total)
T3F58 203:443 JLINK_ReadReg(R0)  returns 0x00000001 (0000ms, 1497ms total)
T3F58 203:443 JLINK_ReadReg(R1)  returns 0x00000000 (0000ms, 1497ms total)
T3F58 203:443 JLINK_ReadReg(R2)  returns 0x00000000 (0000ms, 1497ms total)
T3F58 203:443 JLINK_ReadReg(R3)  returns 0x00000003 (0000ms, 1497ms total)
T3F58 203:443 JLINK_ReadReg(R4)  returns 0x00000000 (0000ms, 1497ms total)
T3F58 203:443 JLINK_ReadReg(R5)  returns 0x00000001 (0000ms, 1497ms total)
T3F58 203:443 JLINK_ReadReg(R6)  returns 0x20000284 (0000ms, 1497ms total)
T3F58 203:443 JLINK_ReadReg(R7)  returns 0x08003381 (0000ms, 1497ms total)
T3F58 203:443 JLINK_ReadReg(R8)  returns 0x00000000 (0000ms, 1497ms total)
T3F58 203:443 JLINK_ReadReg(R9)  returns 0x20000160 (0000ms, 1497ms total)
T3F58 203:443 JLINK_ReadReg(R10)  returns 0x080033B0 (0000ms, 1497ms total)
T3F58 203:443 JLINK_ReadReg(R11)  returns 0x00000000 (0000ms, 1497ms total)
T3F58 203:443 JLINK_ReadReg(R12)  returns 0x00000000 (0000ms, 1497ms total)
T3F58 203:443 JLINK_ReadReg(R13 (SP))  returns 0x200009A8 (0000ms, 1497ms total)
T3F58 203:443 JLINK_ReadReg(R14)  returns 0x080009AF (0000ms, 1497ms total)
T3F58 203:443 JLINK_ReadReg(R15 (PC))  returns 0x08000D30 (0000ms, 1497ms total)
T3F58 203:443 JLINK_ReadReg(XPSR)  returns 0x41000000 (0000ms, 1497ms total)
T3F58 203:443 JLINK_ReadReg(MSP)  returns 0x200009A8 (0000ms, 1497ms total)
T3F58 203:443 JLINK_ReadReg(PSP)  returns 0x20001000 (0000ms, 1497ms total)
T3F58 203:443 JLINK_ReadReg(CFBP)  returns 0x00000000 (0000ms, 1497ms total)
T57E0 203:444 JLINK_ReadMemEx(0x200009BC, 0x0004 Bytes, ..., Flags = 0x02000000) -- Read from C cache (4 bytes @ 0x200009BC) - Data: B1 08 00 08  returns 0x04 (0000ms, 1497ms total)
T57E0 203:444 JLINK_ReadMemEx(0x200009A8, 0x0004 Bytes, ..., Flags = 0x02000000) -- Read from C cache (4 bytes @ 0x200009A8) - Data: 00 00 00 00  returns 0x04 (0000ms, 1497ms total)
T57E0 203:444 JLINK_ReadMemEx(0x200009AC, 0x0004 Bytes, ..., Flags = 0x02000000) -- Read from C cache (4 bytes @ 0x200009AC) - Data: 80 03 00 20  returns 0x04 (0000ms, 1497ms total)
T57E0 203:444 JLINK_ReadMemEx(0x200009B0, 0x0004 Bytes, ..., Flags = 0x02000000) -- Read from C cache (4 bytes @ 0x200009B0) - Data: 00 00 00 00  returns 0x04 (0000ms, 1497ms total)
T57E0 203:444 JLINK_ReadMemEx(0x200009B4, 0x0004 Bytes, ..., Flags = 0x02000000) -- Read from C cache (4 bytes @ 0x200009B4) - Data: 00 00 00 00  returns 0x04 (0000ms, 1497ms total)
T57E0 203:444 JLINK_ReadMemEx(0x200009B8, 0x0004 Bytes, ..., Flags = 0x02000000) -- Read from C cache (4 bytes @ 0x200009B8) - Data: 00 00 00 00  returns 0x04 (0000ms, 1497ms total)
T57E0 203:444 JLINK_ReadMemEx(0x200009C4, 0x0004 Bytes, ..., Flags = 0x02000000) -- Read from C cache (4 bytes @ 0x200009C4) - Data: CF 01 00 08  returns 0x04 (0000ms, 1497ms total)
T57E0 203:444 JLINK_ReadMemEx(0x200009C0, 0x0004 Bytes, ..., Flags = 0x02000000) -- Read from C cache (4 bytes @ 0x200009C0) - Data: 00 00 00 00  returns 0x04 (0000ms, 1497ms total)
T57E0 203:444 JLINK_ReadMemU32(0xE0001004, 0x0001 Items, ...) - Data: 3B 1B 00 00  returns 0x01 (0000ms, 1497ms total)
T57E0 203:444 JLINK_ReadMemEx(0x08000D30, 0x003C Bytes, ..., Flags = 0x02000000) -- Read from C cache (60 bytes @ 0x08000D30) - Data: 31 61 71 60 4F F4 00 71 F5 60 F1 61 70 61 20 07 ...  returns 0x3C (0000ms, 1497ms total)
T3F58 203:945 JLINK_ReadMemEx(0x08000D30, 0x0002 Bytes, ..., Flags = 0x02000000) -- Read from C cache (2 bytes @ 0x08000D30) - Data: 31 61  returns 0x02 (0000ms, 1497ms total)
T3F58 203:945 JLINK_Step() -- Read from C cache (2 bytes @ 0x08000D30) -- CPU_WriteMem(4 bytes @ 0x20000294) -- Simulated  returns 0x00 (0001ms, 1498ms total)
T3F58 203:946 JLINK_ReadReg(R15 (PC))  returns 0x08000D32 (0000ms, 1498ms total)
T3F58 203:946 JLINK_ReadReg(XPSR)  returns 0x41000000 (0000ms, 1498ms total)
T3F58 203:946 JLINK_ReadReg(R0)  returns 0x00000001 (0000ms, 1498ms total)
T3F58 203:946 JLINK_ReadReg(R1)  returns 0x00000000 (0000ms, 1498ms total)
T3F58 203:946 JLINK_ReadReg(R2)  returns 0x00000000 (0000ms, 1498ms total)
T3F58 203:946 JLINK_ReadReg(R3)  returns 0x00000003 (0000ms, 1498ms total)
T3F58 203:946 JLINK_ReadReg(R4)  returns 0x00000000 (0000ms, 1498ms total)
T3F58 203:946 JLINK_ReadReg(R5)  returns 0x00000001 (0000ms, 1498ms total)
T3F58 203:946 JLINK_ReadReg(R6)  returns 0x20000284 (0000ms, 1498ms total)
T3F58 203:946 JLINK_ReadReg(R7)  returns 0x08003381 (0000ms, 1498ms total)
T3F58 203:946 JLINK_ReadReg(R8)  returns 0x00000000 (0000ms, 1498ms total)
T3F58 203:946 JLINK_ReadReg(R9)  returns 0x20000160 (0000ms, 1498ms total)
T3F58 203:946 JLINK_ReadReg(R10)  returns 0x080033B0 (0000ms, 1498ms total)
T3F58 203:946 JLINK_ReadReg(R11)  returns 0x00000000 (0000ms, 1498ms total)
T3F58 203:946 JLINK_ReadReg(R12)  returns 0x00000000 (0000ms, 1498ms total)
T3F58 203:946 JLINK_ReadReg(R13 (SP))  returns 0x200009A8 (0000ms, 1498ms total)
T3F58 203:946 JLINK_ReadReg(R14)  returns 0x080009AF (0000ms, 1498ms total)
T3F58 203:946 JLINK_ReadReg(R15 (PC))  returns 0x08000D32 (0000ms, 1498ms total)
T3F58 203:946 JLINK_ReadReg(XPSR)  returns 0x41000000 (0000ms, 1498ms total)
T3F58 203:946 JLINK_ReadReg(MSP)  returns 0x200009A8 (0000ms, 1498ms total)
T3F58 203:946 JLINK_ReadReg(PSP)  returns 0x20001000 (0000ms, 1498ms total)
T3F58 203:946 JLINK_ReadReg(CFBP)  returns 0x00000000 (0000ms, 1498ms total)
T57E0 203:947 JLINK_ReadMemEx(0x200009BC, 0x0004 Bytes, ..., Flags = 0x02000000) -- Read from C cache (4 bytes @ 0x200009BC) - Data: B1 08 00 08  returns 0x04 (0000ms, 1498ms total)
T57E0 203:947 JLINK_ReadMemEx(0x200009A8, 0x0004 Bytes, ..., Flags = 0x02000000) -- Read from C cache (4 bytes @ 0x200009A8) - Data: 00 00 00 00  returns 0x04 (0000ms, 1498ms total)
T57E0 203:947 JLINK_ReadMemEx(0x200009AC, 0x0004 Bytes, ..., Flags = 0x02000000) -- Read from C cache (4 bytes @ 0x200009AC) - Data: 80 03 00 20  returns 0x04 (0000ms, 1498ms total)
T57E0 203:947 JLINK_ReadMemEx(0x200009B0, 0x0004 Bytes, ..., Flags = 0x02000000) -- Read from C cache (4 bytes @ 0x200009B0) - Data: 00 00 00 00  returns 0x04 (0000ms, 1498ms total)
T57E0 203:947 JLINK_ReadMemEx(0x200009B4, 0x0004 Bytes, ..., Flags = 0x02000000) -- Read from C cache (4 bytes @ 0x200009B4) - Data: 00 00 00 00  returns 0x04 (0000ms, 1498ms total)
T57E0 203:947 JLINK_ReadMemEx(0x200009B8, 0x0004 Bytes, ..., Flags = 0x02000000) -- Read from C cache (4 bytes @ 0x200009B8) - Data: 00 00 00 00  returns 0x04 (0000ms, 1498ms total)
T57E0 203:947 JLINK_ReadMemEx(0x200009C4, 0x0004 Bytes, ..., Flags = 0x02000000) -- Read from C cache (4 bytes @ 0x200009C4) - Data: CF 01 00 08  returns 0x04 (0000ms, 1498ms total)
T57E0 203:947 JLINK_ReadMemEx(0x200009C0, 0x0004 Bytes, ..., Flags = 0x02000000) -- Read from C cache (4 bytes @ 0x200009C0) - Data: 00 00 00 00  returns 0x04 (0000ms, 1498ms total)
T57E0 203:947 JLINK_ReadMemU32(0xE0001004, 0x0001 Items, ...) - Data: 3D 1B 00 00  returns 0x01 (0000ms, 1498ms total)
T3F58 204:752 JLINK_ReadMemEx(0x08000D32, 0x0002 Bytes, ..., Flags = 0x02000000) -- Read from C cache (2 bytes @ 0x08000D32) - Data: 71 60  returns 0x02 (0001ms, 1499ms total)
T3F58 204:753 JLINK_ReadMemEx(0x08000D34, 0x003C Bytes, ..., Flags = 0x02000000) -- Read from C cache (60 bytes @ 0x08000D34) - Data: 4F F4 00 71 F5 60 F1 61 70 61 20 07 04 D5 30 46 ...  returns 0x3C (0000ms, 1499ms total)
T3F58 204:753 JLINK_ReadMemEx(0x08000D32, 0x0002 Bytes, ..., Flags = 0x02000000) -- Read from C cache (2 bytes @ 0x08000D32) - Data: 71 60  returns 0x02 (0000ms, 1499ms total)
T3F58 204:753 JLINK_Step() -- Read from C cache (2 bytes @ 0x08000D32) -- CPU_WriteMem(4 bytes @ 0x20000288) -- Simulated  returns 0x00 (0001ms, 1500ms total)
T3F58 204:754 JLINK_ReadReg(R15 (PC))  returns 0x08000D34 (0000ms, 1500ms total)
T3F58 204:754 JLINK_ReadReg(XPSR)  returns 0x41000000 (0000ms, 1500ms total)
T3F58 204:754 JLINK_ReadReg(R0)  returns 0x00000001 (0000ms, 1500ms total)
T3F58 204:754 JLINK_ReadReg(R1)  returns 0x00000000 (0000ms, 1500ms total)
T3F58 204:754 JLINK_ReadReg(R2)  returns 0x00000000 (0000ms, 1500ms total)
T3F58 204:754 JLINK_ReadReg(R3)  returns 0x00000003 (0000ms, 1500ms total)
T3F58 204:754 JLINK_ReadReg(R4)  returns 0x00000000 (0000ms, 1500ms total)
T3F58 204:754 JLINK_ReadReg(R5)  returns 0x00000001 (0000ms, 1500ms total)
T3F58 204:754 JLINK_ReadReg(R6)  returns 0x20000284 (0000ms, 1500ms total)
T3F58 204:754 JLINK_ReadReg(R7)  returns 0x08003381 (0000ms, 1500ms total)
T3F58 204:754 JLINK_ReadReg(R8)  returns 0x00000000 (0000ms, 1500ms total)
T3F58 204:754 JLINK_ReadReg(R9)  returns 0x20000160 (0000ms, 1500ms total)
T3F58 204:754 JLINK_ReadReg(R10)  returns 0x080033B0 (0000ms, 1500ms total)
T3F58 204:754 JLINK_ReadReg(R11)  returns 0x00000000 (0000ms, 1500ms total)
T3F58 204:754 JLINK_ReadReg(R12)  returns 0x00000000 (0000ms, 1500ms total)
T3F58 204:754 JLINK_ReadReg(R13 (SP))  returns 0x200009A8 (0000ms, 1500ms total)
T3F58 204:754 JLINK_ReadReg(R14)  returns 0x080009AF (0000ms, 1500ms total)
T3F58 204:754 JLINK_ReadReg(R15 (PC))  returns 0x08000D34 (0000ms, 1500ms total)
T3F58 204:754 JLINK_ReadReg(XPSR)  returns 0x41000000 (0000ms, 1500ms total)
T3F58 204:754 JLINK_ReadReg(MSP)  returns 0x200009A8 (0000ms, 1500ms total)
T3F58 204:754 JLINK_ReadReg(PSP)  returns 0x20001000 (0000ms, 1500ms total)
T3F58 204:754 JLINK_ReadReg(CFBP)  returns 0x00000000 (0000ms, 1500ms total)
T57E0 204:755 JLINK_ReadMemEx(0x200009BC, 0x0004 Bytes, ..., Flags = 0x02000000) -- Read from C cache (4 bytes @ 0x200009BC) - Data: B1 08 00 08  returns 0x04 (0000ms, 1500ms total)
T57E0 204:755 JLINK_ReadMemEx(0x200009A8, 0x0004 Bytes, ..., Flags = 0x02000000) -- Read from C cache (4 bytes @ 0x200009A8) - Data: 00 00 00 00  returns 0x04 (0000ms, 1500ms total)
T57E0 204:755 JLINK_ReadMemEx(0x200009AC, 0x0004 Bytes, ..., Flags = 0x02000000) -- Read from C cache (4 bytes @ 0x200009AC) - Data: 80 03 00 20  returns 0x04 (0000ms, 1500ms total)
T57E0 204:755 JLINK_ReadMemEx(0x200009B0, 0x0004 Bytes, ..., Flags = 0x02000000) -- Read from C cache (4 bytes @ 0x200009B0) - Data: 00 00 00 00  returns 0x04 (0000ms, 1500ms total)
T57E0 204:755 JLINK_ReadMemEx(0x200009B4, 0x0004 Bytes, ..., Flags = 0x02000000) -- Read from C cache (4 bytes @ 0x200009B4) - Data: 00 00 00 00  returns 0x04 (0000ms, 1500ms total)
T57E0 204:755 JLINK_ReadMemEx(0x200009B8, 0x0004 Bytes, ..., Flags = 0x02000000) -- Read from C cache (4 bytes @ 0x200009B8) - Data: 00 00 00 00  returns 0x04 (0000ms, 1500ms total)
T57E0 204:755 JLINK_ReadMemEx(0x200009C4, 0x0004 Bytes, ..., Flags = 0x02000000) -- Read from C cache (4 bytes @ 0x200009C4) - Data: CF 01 00 08  returns 0x04 (0000ms, 1500ms total)
T57E0 204:755 JLINK_ReadMemEx(0x200009C0, 0x0004 Bytes, ..., Flags = 0x02000000) -- Read from C cache (4 bytes @ 0x200009C0) - Data: 00 00 00 00  returns 0x04 (0000ms, 1500ms total)
T57E0 204:755 JLINK_ReadMemU32(0xE0001004, 0x0001 Items, ...) - Data: 3F 1B 00 00  returns 0x01 (0000ms, 1500ms total)
T3F58 205:314 JLINK_ReadMemEx(0x08000D34, 0x003C Bytes, ..., Flags = 0x02000000) -- Read from C cache (60 bytes @ 0x08000D34) - Data: 4F F4 00 71 F5 60 F1 61 70 61 20 07 04 D5 30 46 ...  returns 0x3C (0000ms, 1500ms total)
T3F58 205:314 JLINK_ReadMemEx(0x08000D34, 0x0002 Bytes, ..., Flags = 0x02000000) -- Read from C cache (2 bytes @ 0x08000D34) - Data: 4F F4  returns 0x02 (0000ms, 1500ms total)
T3F58 205:314 JLINK_Step() -- Read from C cache (2 bytes @ 0x08000D34) -- Read from C cache (2 bytes @ 0x08000D36) -- Simulated  returns 0x00 (0001ms, 1501ms total)
T3F58 205:315 JLINK_ReadReg(R15 (PC))  returns 0x08000D38 (0000ms, 1501ms total)
T3F58 205:315 JLINK_ReadReg(XPSR)  returns 0x41000000 (0000ms, 1501ms total)
T3F58 205:315 JLINK_ReadReg(R0)  returns 0x00000001 (0000ms, 1501ms total)
T3F58 205:315 JLINK_ReadReg(R1)  returns 0x00000200 (0000ms, 1501ms total)
T3F58 205:315 JLINK_ReadReg(R2)  returns 0x00000000 (0000ms, 1501ms total)
T3F58 205:315 JLINK_ReadReg(R3)  returns 0x00000003 (0000ms, 1501ms total)
T3F58 205:315 JLINK_ReadReg(R4)  returns 0x00000000 (0000ms, 1501ms total)
T3F58 205:315 JLINK_ReadReg(R5)  returns 0x00000001 (0000ms, 1501ms total)
T3F58 205:315 JLINK_ReadReg(R6)  returns 0x20000284 (0000ms, 1501ms total)
T3F58 205:315 JLINK_ReadReg(R7)  returns 0x08003381 (0000ms, 1501ms total)
T3F58 205:315 JLINK_ReadReg(R8)  returns 0x00000000 (0000ms, 1501ms total)
T3F58 205:315 JLINK_ReadReg(R9)  returns 0x20000160 (0000ms, 1501ms total)
T3F58 205:315 JLINK_ReadReg(R10)  returns 0x080033B0 (0000ms, 1501ms total)
T3F58 205:315 JLINK_ReadReg(R11)  returns 0x00000000 (0000ms, 1501ms total)
T3F58 205:315 JLINK_ReadReg(R12)  returns 0x00000000 (0000ms, 1501ms total)
T3F58 205:315 JLINK_ReadReg(R13 (SP))  returns 0x200009A8 (0000ms, 1501ms total)
T3F58 205:315 JLINK_ReadReg(R14)  returns 0x080009AF (0000ms, 1501ms total)
T3F58 205:315 JLINK_ReadReg(R15 (PC))  returns 0x08000D38 (0000ms, 1501ms total)
T3F58 205:315 JLINK_ReadReg(XPSR)  returns 0x41000000 (0000ms, 1501ms total)
T3F58 205:315 JLINK_ReadReg(MSP)  returns 0x200009A8 (0000ms, 1501ms total)
T3F58 205:315 JLINK_ReadReg(PSP)  returns 0x20001000 (0000ms, 1501ms total)
T3F58 205:315 JLINK_ReadReg(CFBP)  returns 0x00000000 (0000ms, 1501ms total)
T57E0 205:316 JLINK_ReadMemEx(0x200009BC, 0x0004 Bytes, ..., Flags = 0x02000000) -- Read from C cache (4 bytes @ 0x200009BC) - Data: B1 08 00 08  returns 0x04 (0000ms, 1501ms total)
T57E0 205:316 JLINK_ReadMemEx(0x200009A8, 0x0004 Bytes, ..., Flags = 0x02000000) -- Read from C cache (4 bytes @ 0x200009A8) - Data: 00 00 00 00  returns 0x04 (0000ms, 1501ms total)
T57E0 205:316 JLINK_ReadMemEx(0x200009AC, 0x0004 Bytes, ..., Flags = 0x02000000) -- Read from C cache (4 bytes @ 0x200009AC) - Data: 80 03 00 20  returns 0x04 (0000ms, 1501ms total)
T57E0 205:316 JLINK_ReadMemEx(0x200009B0, 0x0004 Bytes, ..., Flags = 0x02000000) -- Read from C cache (4 bytes @ 0x200009B0) - Data: 00 00 00 00  returns 0x04 (0000ms, 1501ms total)
T57E0 205:316 JLINK_ReadMemEx(0x200009B4, 0x0004 Bytes, ..., Flags = 0x02000000) -- Read from C cache (4 bytes @ 0x200009B4) - Data: 00 00 00 00  returns 0x04 (0000ms, 1501ms total)
T57E0 205:316 JLINK_ReadMemEx(0x200009B8, 0x0004 Bytes, ..., Flags = 0x02000000) -- Read from C cache (4 bytes @ 0x200009B8) - Data: 00 00 00 00  returns 0x04 (0000ms, 1501ms total)
T57E0 205:316 JLINK_ReadMemEx(0x200009C4, 0x0004 Bytes, ..., Flags = 0x02000000) -- Read from C cache (4 bytes @ 0x200009C4) - Data: CF 01 00 08  returns 0x04 (0000ms, 1501ms total)
T57E0 205:316 JLINK_ReadMemEx(0x200009C0, 0x0004 Bytes, ..., Flags = 0x02000000) -- Read from C cache (4 bytes @ 0x200009C0) - Data: 00 00 00 00  returns 0x04 (0000ms, 1501ms total)
T57E0 205:316 JLINK_ReadMemU32(0xE0001004, 0x0001 Items, ...) - Data: 40 1B 00 00  returns 0x01 (0000ms, 1501ms total)
T57E0 205:316 JLINK_ReadMemEx(0x08000D38, 0x003C Bytes, ..., Flags = 0x02000000) -- Read from C cache (60 bytes @ 0x08000D38) - Data: F5 60 F1 61 70 61 20 07 04 D5 30 46 02 22 00 21 ...  returns 0x3C (0000ms, 1501ms total)
T3F58 205:698 JLINK_ReadMemEx(0x08000D38, 0x0002 Bytes, ..., Flags = 0x02000000) -- Read from C cache (2 bytes @ 0x08000D38) - Data: F5 60  returns 0x02 (0000ms, 1501ms total)
T3F58 205:698 JLINK_Step() -- Read from C cache (2 bytes @ 0x08000D38) -- CPU_WriteMem(4 bytes @ 0x20000290) -- Simulated  returns 0x00 (0000ms, 1501ms total)
T3F58 205:698 JLINK_ReadReg(R15 (PC))  returns 0x08000D3A (0000ms, 1501ms total)
T3F58 205:698 JLINK_ReadReg(XPSR)  returns 0x41000000 (0000ms, 1501ms total)
T3F58 205:698 JLINK_ReadReg(R0)  returns 0x00000001 (0000ms, 1501ms total)
T3F58 205:698 JLINK_ReadReg(R1)  returns 0x00000200 (0000ms, 1501ms total)
T3F58 205:698 JLINK_ReadReg(R2)  returns 0x00000000 (0000ms, 1501ms total)
T3F58 205:698 JLINK_ReadReg(R3)  returns 0x00000003 (0000ms, 1501ms total)
T3F58 205:698 JLINK_ReadReg(R4)  returns 0x00000000 (0000ms, 1501ms total)
T3F58 205:698 JLINK_ReadReg(R5)  returns 0x00000001 (0000ms, 1501ms total)
T3F58 205:698 JLINK_ReadReg(R6)  returns 0x20000284 (0000ms, 1501ms total)
T3F58 205:698 JLINK_ReadReg(R7)  returns 0x08003381 (0000ms, 1501ms total)
T3F58 205:698 JLINK_ReadReg(R8)  returns 0x00000000 (0000ms, 1501ms total)
T3F58 205:698 JLINK_ReadReg(R9)  returns 0x20000160 (0000ms, 1501ms total)
T3F58 205:698 JLINK_ReadReg(R10)  returns 0x080033B0 (0001ms, 1502ms total)
T3F58 205:699 JLINK_ReadReg(R11)  returns 0x00000000 (0000ms, 1502ms total)
T3F58 205:699 JLINK_ReadReg(R12)  returns 0x00000000 (0000ms, 1502ms total)
T3F58 205:699 JLINK_ReadReg(R13 (SP))  returns 0x200009A8 (0000ms, 1502ms total)
T3F58 205:699 JLINK_ReadReg(R14)  returns 0x080009AF (0000ms, 1502ms total)
T3F58 205:699 JLINK_ReadReg(R15 (PC))  returns 0x08000D3A (0000ms, 1502ms total)
